Title: ring_osc
Date: Tue Dec  7 14:25:53  2021
Plotname: Transient Analysis
Flags: real
No. Variables: 14
No. Points: 14271   
Variables:
	0	time	time
	1	v(n11)	voltage
	2	v(n10)	voltage
	3	v(vdd)	voltage
	4	v(n9)	voltage
	5	v(n8)	voltage
	6	v(n7)	voltage
	7	v(n6)	voltage
	8	v(n5)	voltage
	9	v(n4)	voltage
	10	v(n3)	voltage
	11	v(n2)	voltage
	12	v(n1)	voltage
	13	i(vi13)	current
Values:
0		0.000000000000000e+00
	-4.127442571316352e-61
	-1.273119367409649e-60
	0.000000000000000e+00
	-1.273119367409649e-60
	-4.127442572516394e-61
	-1.273119259873443e-60
	-1.273119259873443e-60
	-1.273119259873443e-60
	-1.273119283122493e-60
	-1.788130035316739e-61
	-4.127442948546098e-61
	-1.788130035317493e-61
	-4.933455426048845e-72
1		2.000000000000000e-12
	1.180148774475546e-05
	1.180148774475546e-05
	1.800000000000000e-05
	1.180148774475545e-05
	1.180148774475545e-05
	1.180148774475545e-05
	1.180148774475545e-05
	1.180148774475545e-05
	1.180148774475545e-05
	1.180148774475545e-05
	1.180148774475545e-05
	1.180148774475545e-05
	-2.737984214216006e-07
2		4.000000000000001e-12
	2.377009922033454e-05
	2.377009922033453e-05
	3.600000000000000e-05
	2.377009922033452e-05
	2.377009922033452e-05
	2.377009922033451e-05
	2.377009922033452e-05
	2.377009922033452e-05
	2.377009922033452e-05
	2.377009922033452e-05
	2.377009922033452e-05
	2.377009922033452e-05
	-2.829601548336085e-07
3		8.000000000000001e-12
	4.779435109516486e-05
	4.779435109516483e-05
	7.200000000000000e-05
	4.779435109516481e-05
	4.779435109516481e-05
	4.779435109516478e-05
	4.779435109516479e-05
	4.779435109516480e-05
	4.779435109516481e-05
	4.779435109516481e-05
	4.779435109516481e-05
	4.779435109516481e-05
	-2.858090519990531e-07
4		1.600000000000000e-11
	9.590292734868793e-05
	9.590292734868781e-05
	1.440000000000000e-04
	9.590292734868779e-05
	9.590292734868777e-05
	9.590292734868779e-05
	9.590292734868782e-05
	9.590292734868789e-05
	9.590292734868789e-05
	9.590292734868789e-05
	9.590292734868789e-05
	9.590292734868789e-05
	-2.837907533876752e-07
	